(1637195700.033195) can0 18EEFF50#22E13111008232C0
(1637195700.214725) can0 1CFF1490#B098010000451000
(1637195700.347972) can0 18EFFF50#899800000500FFFF
(1637195700.443204) can0 18EFFF50#899800000500FFFF
(1637195700.664010) can0 18EEFF50#22E13111008232C0
(1637195700.891768) can0 18EAFF50#00EE00
(1637195700.907683) can0 18EEFF90#C9831916208C3CC0
(1637195702.258650) can0 0DF20D90#2014140000C0FFFF
(1637195704.302999) can0 1CFF1490#B098010000451000
(1637195708.391603) can0 1CFF1490#B098010000451000
(1637195712.454663) can0 0DF20C90#FF00000000000000
(1637195712.455188) can0 19F30790#FF000000000000FF
(1637195712.455846) can0 0DF20C90#FF01020000640000
(1637195712.456350) can0 19F30790#FF017800000000FF
(1637195712.457065) can0 0DF20C90#FF02020000640000
(1637195712.457523) can0 19F30790#FF027700000000FF
(1637195712.458068) can0 0DF20C90#FF03000000000000
(1637195712.458662) can0 19F30790#FF030000000000FF
(1637195712.459268) can0 0DF20C90#FF04000000000000
(1637195712.459955) can0 19F30790#FF040000000000FF
(1637195712.460464) can0 0DF20C90#FF05020000640000
(1637195712.461035) can0 19F30790#FF057700000000FF
(1637195712.461551) can0 0DF20C90#FF06020000640000
(1637195712.462205) can0 19F30790#FF067800000000FF
(1637195712.462752) can0 0DF20C90#FF07000000000000
(1637195712.463303) can0 19F30790#FF070000000000FF
(1637195712.464050) can0 0DF20C90#FF08000000000000
(1637195712.464540) can0 19F30790#FF080000000000FF
(1637195712.465127) can0 0DF20C90#FF09000000000000
(1637195712.465707) can0 19F30790#FF090000000000FF
(1637195712.466316) can0 0DF20C90#FF0A000000000000
(1637195712.466858) can0 19F30790#FF0A0000000000FF
(1637195712.467439) can0 0DF20C90#FF0B000000000000
(1637195712.468023) can0 19F30790#FF0B0000000000FF
(1637195712.480416) can0 0DF20D90#2014140000C0FFFF
(1637195712.480925) can0 1DF01190#30751FFFFFFFFFFF
(1637195712.481488) can0 1CFF1490#B098010000451000
(1637195716.569049) can0 1CFF1490#B098010000451000
(1637195720.657097) can0 1CFF1490#B098010000451000
(1637195722.701427) can0 0DF20D90#2014140000C0FFFF
(1637195722.742923) can0 18EEFF50#22E13111008232C0
(1637195724.194638) can0 18EEFF50#22E13111008232C0
(1637195724.194673) can0 18EAFF50#00EE00
(1637195724.210161) can0 18EEFF90#C9831916208C3CC0
(1637195724.229183) can0 19F01450#00863408B1035553
(1637195724.229728) can0 19F01450#014231303000FFFF
(1637195724.230310) can0 19F01450#02FFFFFFFFFFFFFF
(1637195724.230884) can0 19F01450#03FFFFFFFFFFFFFF
(1637195724.231478) can0 19F01450#04FFFFFFFFFFFFFF
(1637195724.231990) can0 19F01450#05FFFF322E312E31
(1637195724.232626) can0 19F01450#062E3200FFFFFFFF
(1637195724.233226) can0 19F01450#07FFFFFFFFFFFFFF
(1637195724.233705) can0 19F01450#08FFFFFFFFFFFFFF
(1637195724.234296) can0 19F01450#09FFFFFFFFFFFF32
(1637195724.234839) can0 19F01450#0A2E3000FFFFFFFF
(1637195724.235425) can0 19F01450#0BFFFFFFFFFFFFFF
(1637195724.235994) can0 19F01450#0CFFFFFFFFFFFFFF
(1637195724.236566) can0 19F01450#0DFFFFFFFFFFFFFF
(1637195724.237176) can0 19F01450#0EFFFFFF31313731
(1637195724.237710) can0 19F01450#0F37343600FFFFFF
(1637195724.238328) can0 19F01450#10FFFFFFFFFFFFFF
(1637195724.238906) can0 19F01450#11FFFFFFFFFFFFFF
(1637195724.239434) can0 19F01450#12FFFFFFFFFFFFFF
(1637195724.240007) can0 19F01450#130201FFFFFFFFFF
(1637195724.240373) can0 18EA5050#14F001
(1637195724.328299) can0 18EA9050#14F001
(1637195724.333079) can0 19F01490#0086D0073D16434C
(1637195724.334543) can0 19F01490#014D443132002020
(1637195724.336549) can0 19F01490#0220202020202020
(1637195724.338445) can0 19F01490#0320202020202020
(1637195724.340617) can0 19F01490#0420202020202020
(1637195724.342434) can0 19F01490#05202030312E3134
(1637195724.344497) can0 19F01490#062E313020202020
(1637195724.346496) can0 19F01490#0720202020202020
(1637195724.348506) can0 19F01490#0820202020202020
(1637195724.350368) can0 19F01490#0920202020202052
(1637195724.352554) can0 19F01490#0A65762041002020
(1637195724.354410) can0 19F01490#0B20202020202020
(1637195724.356361) can0 19F01490#0C20202020202020
(1637195724.358426) can0 19F01490#0D20202020202020
(1637195724.360365) can0 19F01490#0E20202031363732
(1637195724.362322) can0 19F01490#0F31333720202020
(1637195724.364425) can0 19F01490#1020202020202020
(1637195724.366388) can0 19F01490#1120202020202020
(1637195724.368473) can0 19F01490#1220202020202020
(1637195724.370441) can0 19F01490#130201FFFFFFFFFF
(1637195724.429193) can0 18E8FF50#01FFFFFFFF02FF01
(1637195724.429428) can0 18EA5050#02FF01
(1637195724.528833) can0 18EA9050#02FF01
(1637195724.531698) can0 19F01650#002E020102012A01
(1637195724.531724) can0 19F01650#014D61726574726F
(1637195724.532215) can0 19F01650#026E20312D383636
(1637195724.532739) can0 19F01650#032D3535302D3931
(1637195724.533298) can0 19F01650#043030207777772E
(1637195724.533902) can0 19F01650#056D61726574726F
(1637195724.534444) can0 19F01650#066E2E636F6DFFFF
(1637195724.534772) can0 18EA5050#16F001
(1637195724.555348) can0 19FF0290#4020899820FFFC1A
(1637195724.556506) can0 19FF0290#4101434C4D443132
(1637195724.558707) can0 19FF0290#4220426F78233120
(1637195724.560753) can0 19FF0290#43496E7374616E63
(1637195724.562769) can0 19FF0290#4465203332FCFFFF
(1637195724.605208) can0 19FF0290#6020899820FFEF1A
(1637195724.606506) can0 19FF0290#6101434C4D443132
(1637195724.608522) can0 19FF0290#6220426F78233120
(1637195724.610587) can0 19FF0290#63496E7374616E63
(1637195724.612851) can0 19FF0290#6465203332EFFFFF
(1637195724.632437) can0 18E8FF50#01FFFFFFFF09FF01
(1637195724.632646) can0 18EA5050#09FF01
(1637195724.634299) can0 19FF0290#8012899820FF000C
(1637195724.635611) can0 19FF0290#8101436972637569
(1637195724.637793) can0 19FF0290#827420310000FFFF
(1637195724.680270) can0 19FF0290#A012899820FF010C
(1637195724.681734) can0 19FF0290#A101436972637569
(1637195724.683784) can0 19FF0290#A27420320001FFFF
(1637195724.706466) can0 19FF0290#C012899820FF020C
(1637195724.707779) can0 19FF0290#C101436972637569
(1637195724.709724) can0 19FF0290#C27420330002FFFF
(1637195724.731991) can0 0DEDFF50#00080200EF010004
(1637195724.732481) can0 0DEDFF50#010010FFFFFFFFFF
(1637195724.733027) can0 0DED5050#00110100EF01F804
(1637195724.733611) can0 0DED5050#0101899802B10303
(1637195724.734174) can0 0DED5050#02010056FFFFFFFF
(1637195724.751481) can0 19FF0290#E012899820FF030C
(1637195724.752714) can0 19FF0290#E101436972637569
(1637195724.754651) can0 19FF0290#E27420340003FFFF
(1637195724.777575) can0 19FF0290#0012899820FF040C
(1637195724.778761) can0 19FF0290#0101436972637569
(1637195724.780708) can0 19FF0290#027420350004FFFF
(1637195724.827574) can0 1CFF1490#B098010000451000
(1637195724.827762) can0 19FF0290#2012899820FF050C
(1637195724.828584) can0 19FF0290#2101436972637569
(1637195724.830624) can0 19FF0290#227420360005FFFF
(1637195724.852445) can0 19FF0290#4012899820FF060C
(1637195724.853742) can0 19FF0290#4101436972637569
(1637195724.855757) can0 19FF0290#427420370006FFFF
(1637195724.898448) can0 19FF0290#6012899820FF070C
(1637195724.899784) can0 19FF0290#6101436972637569
(1637195724.901793) can0 19FF0290#627420380007FFFF
(1637195724.923327) can0 19FF0290#8012899820FF080C
(1637195724.924584) can0 19FF0290#8101436972637569
(1637195724.926848) can0 19FF0290#827420390008FFFF
(1637195724.969370) can0 19FF0290#A012899820FF090C
(1637195724.970744) can0 19FF0290#A101436972637569
(1637195724.972756) can0 19FF0290#A27420313009FFFF
(1637195724.994594) can0 19FF0290#C012899820FF0A0C
(1637195724.995669) can0 19FF0290#C101436972637569
(1637195724.997782) can0 19FF0290#C2742031310AFFFF
(1637195725.040361) can0 19FF0290#E012899820FF0B0C
(1637195725.041590) can0 19FF0290#E101436972637569
(1637195725.043791) can0 19FF0290#E2742031320BFFFF
(1637195725.066572) can0 19FF0290#0012899820FF0C0C
(1637195725.067648) can0 19FF0290#0101436972637569
(1637195725.069848) can0 19FF0290#02742031000CFFFF
(1637195725.111583) can0 19FF0290#2012899820FF0D0C
(1637195725.112653) can0 19FF0290#2101436972637569
(1637195725.114717) can0 19FF0290#22742032000DFFFF
(1637195725.137668) can0 19FF0290#4012899820FF0E0C
(1637195725.138684) can0 19FF0290#4101436972637569
(1637195725.140927) can0 19FF0290#42742033000EFFFF
(1637195725.183536) can0 19FF0290#6012899820FF0F0C
(1637195725.184661) can0 19FF0290#6101436972637569
(1637195725.186651) can0 19FF0290#62742034000FFFFF
(1637195725.208281) can0 19FF0290#8012899820FF100C
(1637195725.209458) can0 19FF0290#8101436972637569
(1637195725.211486) can0 19FF0290#827420350010FFFF
(1637195725.254453) can0 19FF0290#A012899820FF110C
(1637195725.255706) can0 19FF0290#A101436972637569
(1637195725.257727) can0 19FF0290#A27420360011FFFF
(1637195725.279614) can0 19FF0290#C012899820FF120C
(1637195725.280709) can0 19FF0290#C101436972637569
(1637195725.282740) can0 19FF0290#C27420370012FFFF
(1637195726.541190) can0 18EA9050#16F001
(1637195726.549508) can0 19F01690#4043170143656E74
(1637195726.550826) can0 19F01690#41657220636F6E73
(1637195726.552841) can0 19F01690#426F6C65206C6F63
(1637195726.554878) can0 19F01690#436B657202012A01
(1637195726.556699) can0 19F01690#444D61726574726F
(1637195726.558724) can0 19F01690#456E20312D383636
(1637195726.560812) can0 19F01690#462D3535302D3931
(1637195726.562995) can0 19F01690#473030207777772E
(1637195726.564824) can0 19F01690#486D61726574726F
(1637195726.566735) can0 19F01690#496E2E636F6D00FF
(1637195726.743144) can0 0DEDFF50#20080200EF010004
(1637195726.743626) can0 0DEDFF50#210010FFFFFFFFFF
(1637195726.744229) can0 0DED5050#20110100EF01F804
(1637195726.744790) can0 0DED5050#2101899802B10303
(1637195726.745409) can0 0DED5050#22010056FFFFFFFF
(1637195726.842787) can0 18EA9050#09FF01
(1637195726.874818) can0 1DFF0990#000989980DF201EF
(1637195726.875691) can0 1DFF0990#0120FFFFFFFFFFFF
(1637195726.877848) can0 19FF0990#200989980CF201EF
(1637195726.879839) can0 19FF0990#2120FFFFFFFFFFFF
(1637195726.901694) can0 1DFF0990#400989980DF20100
(1637195726.902693) can0 1DFF0990#4120FF01FFFFFFFF
(1637195726.904720) can0 19FF0990#600989980CF20100
(1637195726.906754) can0 19FF0990#6120FF01FFFFFFFF
(1637195726.949468) can0 1DFF0990#800989980DF20101
(1637195726.950984) can0 1DFF0990#8120FF02FFFFFFFF
(1637195726.953274) can0 19FF0990#A00989980CF20101
(1637195726.954752) can0 19FF0990#A120FF02FFFFFFFF
(1637195726.981791) can0 1DFF0990#C00989980DF20102
(1637195726.982819) can0 1DFF0990#C120FF03FFFFFFFF
(1637195726.984681) can0 19FF0990#E00989980CF20102
(1637195726.986834) can0 19FF0990#E120FF03FFFFFFFF
(1637195727.028439) can0 1DFF0990#000989980DF20103
(1637195727.029816) can0 1DFF0990#0120FF04FFFFFFFF
(1637195727.031830) can0 19FF0990#200989980CF20103
(1637195727.033895) can0 19FF0990#2120FF04FFFFFFFF
(1637195727.056581) can0 1DFF0990#400989980DF20104
(1637195727.058465) can0 1DFF0990#4120FF05FFFFFFFF
(1637195727.059619) can0 19FF0990#600989980CF20104
(1637195727.061672) can0 19FF0990#6120FF05FFFFFFFF
(1637195727.104641) can0 1DFF0990#800989980DF20105
(1637195727.105766) can0 1DFF0990#8120FF06FFFFFFFF
(1637195727.108087) can0 19FF0990#A00989980CF20105
(1637195727.109756) can0 19FF0990#A120FF06FFFFFFFF
(1637195727.131654) can0 1DFF0990#C00989980DF20106
(1637195727.133612) can0 1DFF0990#C120FF07FFFFFFFF
(1637195727.134770) can0 19FF0990#E00989980CF20106
(1637195727.136934) can0 19FF0990#E120FF07FFFFFFFF
(1637195727.179535) can0 1DFF0990#000989980DF20107
(1637195727.180637) can0 1DFF0990#0120FF08FFFFFFFF
(1637195727.182557) can0 19FF0990#200989980CF20107
(1637195727.184679) can0 19FF0990#2120FF08FFFFFFFF
(1637195727.206378) can0 1DFF0990#400989980DF20108
(1637195727.207686) can0 1DFF0990#4120FF09FFFFFFFF
(1637195727.209558) can0 19FF0990#600989980CF20108
(1637195727.211509) can0 19FF0990#6120FF09FFFFFFFF
(1637195727.254305) can0 1DFF0990#800989980DF20109
(1637195727.255520) can0 1DFF0990#8120FF0AFFFFFFFF
(1637195727.257545) can0 19FF0990#A00989980CF20109
(1637195727.259492) can0 19FF0990#A120FF0AFFFFFFFF
(1637195727.281307) can0 1DFF0990#C00989980DF2010A
(1637195727.282508) can0 1DFF0990#C120FF0BFFFFFFFF
(1637195727.284520) can0 19FF0990#E00989980CF2010A
(1637195727.286503) can0 19FF0990#E120FF0BFFFFFFFF
(1637195727.329244) can0 1DFF0990#000989980DF2010B
(1637195727.330517) can0 1DFF0990#0120FF0CFFFFFFFF
(1637195727.332495) can0 19FF0990#200989980CF2010B
(1637195727.334507) can0 19FF0990#2120FF0CFFFFFFFF
(1637195727.357270) can0 1DFF0990#400989980DF2010C
(1637195727.358584) can0 1DFF0990#4120FF0DFFFFFFFF
(1637195727.360540) can0 19FF0990#600989980CF2010C
(1637195727.362535) can0 19FF0990#6120FF0DFFFFFFFF
(1637195727.404254) can0 1DFF0990#800989980DF2010D
(1637195727.405558) can0 1DFF0990#8120FF0EFFFFFFFF
(1637195727.407485) can0 19FF0990#A00989980CF2010D
(1637195727.409592) can0 19FF0990#A120FF0EFFFFFFFF
(1637195727.432300) can0 1DFF0990#C00989980DF2010E
(1637195727.433593) can0 1DFF0990#C120FF0FFFFFFFFF
(1637195727.435532) can0 19FF0990#E00989980CF2010E
(1637195727.437619) can0 19FF0990#E120FF0FFFFFFFFF
(1637195727.480360) can0 1DFF0990#000989980DF2010F
(1637195727.481630) can0 1DFF0990#0120FF10FFFFFFFF
(1637195727.483666) can0 19FF0990#200989980CF2010F
(1637195727.485655) can0 19FF0990#2120FF10FFFFFFFF
(1637195727.507758) can0 1DFF0990#400989980DF20110
(1637195727.508621) can0 1DFF0990#4120FF11FFFFFFFF
(1637195727.510684) can0 19FF0990#600989980CF20110
(1637195727.512621) can0 19FF0990#6120FF11FFFFFFFF
(1637195727.555583) can0 1DFF0990#800989980DF20111
(1637195727.556805) can0 1DFF0990#8120FF12FFFFFFFF
(1637195727.558810) can0 19FF0990#A00989980CF20111
(1637195727.560745) can0 19FF0990#A120FF12FFFFFFFF
(1637195727.582486) can0 1DFF0990#C00989980DF20112
(1637195727.583595) can0 1DFF0990#C120FF13FFFFFFFF
(1637195727.585717) can0 19FF0990#E00989980CF20112
(1637195727.587789) can0 19FF0990#E120FF13FFFFFFFF
(1637195728.099748) can0 0DF20C90#FF00000000000000
(1637195728.100252) can0 19F30790#FF000000000000FF
(1637195728.100943) can0 0DF20C90#FF01020000640000
(1637195728.101390) can0 19F30790#FF017800000000FF
(1637195728.101964) can0 0DF20C90#FF02020000640000
(1637195728.102574) can0 19F30790#FF027700000000FF
(1637195728.103061) can0 0DF20C90#FF03000000000000
(1637195728.103633) can0 19F30790#FF030000000000FF
(1637195728.104240) can0 0DF20C90#FF04000000000000
(1637195728.104824) can0 19F30790#FF040000000000FF
(1637195728.105413) can0 0DF20C90#FF05020000640000
(1637195728.105934) can0 19F30790#FF057700000000FF
(1637195728.106508) can0 0DF20C90#FF06020000640000
(1637195728.107158) can0 19F30790#FF067800000000FF
(1637195728.107734) can0 0DF20C90#FF07000000000000
(1637195728.108312) can0 19F30790#FF070000000000FF
(1637195728.108869) can0 0DF20C90#FF08000000000000
(1637195728.109561) can0 19F30790#FF080000000000FF
(1637195728.110016) can0 0DF20C90#FF09000000000000
(1637195728.110640) can0 19F30790#FF090000000000FF
(1637195728.111265) can0 0DF20C90#FF0A000000000000
(1637195728.111766) can0 19F30790#FF0A0000000000FF
(1637195728.112434) can0 0DF20C90#FF0B000000000000
(1637195728.112981) can0 19F30790#FF0B0000000000FF
(1637195728.753821) can0 0DEDFF50#40080200EF010004
(1637195728.754392) can0 0DEDFF50#410010FFFFFFFFFF
(1637195728.754911) can0 0DED5050#40110100EF01F804
(1637195728.755663) can0 0DED5050#4101899802B10303
(1637195728.756052) can0 0DED5050#42010056FFFFFFFF
(1637195728.853553) can0 18EA9050#00EE01
(1637195728.854534) can0 0DEE5090#00280000E80000EE
(1637195728.855671) can0 0DEE5090#010002FF0014FF00
(1637195728.857668) can0 0DEE5090#0200ED0100EE0111
(1637195728.859696) can0 0DEE5090#03F00114F00116F0
(1637195728.861686) can0 0DEE5090#04010CF2010DF201
(1637195728.863660) can0 0DEE5090#0502FF0109FF01FF
(1637195728.865647) can0 0DEE5090#20160100EE0000EA
(1637195728.867648) can0 0DEE5090#210000ED0100EF01
(1637195728.869649) can0 0DEE5090#2200EF000DF20100
(1637195728.871648) can0 0DEE5090#23E800FFFFFFFFFF
(1637195728.955258) can0 18EA9050#00EE01
(1637195728.975533) can0 0DEE5090#40280000E80000EE
(1637195728.976625) can0 0DEE5090#410002FF0014FF00
(1637195728.978678) can0 0DEE5090#4200ED0100EE0111
(1637195728.980589) can0 0DEE5090#43F00114F00116F0
(1637195728.982542) can0 0DEE5090#44010CF2010DF201
(1637195728.985055) can0 0DEE5090#4502FF0109FF01FF
(1637195728.986617) can0 0DEE5090#60160100EE0000EA
(1637195728.988609) can0 0DEE5090#610000ED0100EF01
(1637195728.990591) can0 0DEE5090#6200EF000DF20100
(1637195728.992684) can0 0DEE5090#63E800FFFFFFFFFF
(1637195729.182545) can0 1CFF1490#B098010000451000
(1637195732.773625) can0 0DEDFF50#60080200EF010004
(1637195732.774137) can0 0DEDFF50#610010FFFFFFFFFF
(1637195732.774951) can0 0DED5050#60110100EF01F804
(1637195732.776461) can0 0DED5050#6101899802B10303
(1637195732.776471) can0 0DED5050#62010056FFFFFFFF
(1637195733.175653) can0 18EA9050#00EE00
(1637195733.184739) can0 18EEFF90#C9831916208C3CC0
(1637195733.271170) can0 0DF20D90#2014140000C0FFFF
(1637195733.271182) can0 1CFF1490#B098010000451000
(1637195733.276348) can0 18EA9050#02FF01
(1637195733.310893) can0 19FF0290#E020899820FFFC1A
(1637195733.311868) can0 19FF0290#E101434C4D443132
(1637195733.313733) can0 19FF0290#E220426F78233120
(1637195733.315871) can0 19FF0290#E3496E7374616E63
(1637195733.317742) can0 19FF0290#E465203332FCFFFF
(1637195733.340845) can0 19FF0290#0020899820FFEF1A
(1637195733.341827) can0 19FF0290#0101434C4D443132
(1637195733.343897) can0 19FF0290#0220426F78233120
(1637195733.345989) can0 19FF0290#03496E7374616E63
(1637195733.347960) can0 19FF0290#0465203332EFFFFF
(1637195733.390834) can0 19FF0290#2012899820FF000C
(1637195733.391620) can0 19FF0290#2101436972637569
(1637195733.393921) can0 19FF0290#227420310000FFFF
(1637195733.415814) can0 19FF0290#4012899820FF010C
(1637195733.416792) can0 19FF0290#4101436972637569
(1637195733.418752) can0 19FF0290#427420320001FFFF
(1637195733.461768) can0 19FF0290#6012899820FF020C
(1637195733.462806) can0 19FF0290#6101436972637569
(1637195733.464798) can0 19FF0290#627420330002FFFF
(1637195733.486745) can0 19FF0290#8012899820FF030C
(1637195733.487707) can0 19FF0290#8101436972637569
(1637195733.489782) can0 19FF0290#827420340003FFFF
(1637195733.532808) can0 19FF0290#A012899820FF040C
(1637195733.533853) can0 19FF0290#A101436972637569
(1637195733.535910) can0 19FF0290#A27420350004FFFF
(1637195733.557850) can0 19FF0290#C012899820FF050C
(1637195733.558938) can0 19FF0290#C101436972637569
(1637195733.561205) can0 19FF0290#C27420360005FFFF
(1637195733.603784) can0 19FF0290#E012899820FF060C
(1637195733.604845) can0 19FF0290#E101436972637569
(1637195733.606936) can0 19FF0290#E27420370006FFFF
(1637195733.607775) can0 0DED9050#80170100EF01F804
(1637195733.608385) can0 0DED9050#81018998023D1603
(1637195733.608964) can0 0DED9050#820100FC06657262
(1637195733.609497) can0 0DED9050#83206434FFFFFFFF
(1637195733.629846) can0 0DED5090#00080200EF010004
(1637195733.630961) can0 0DED5090#010505FFFFFFFFFF
(1637195733.632902) can0 19FF0290#0012899820FF070C
(1637195733.634907) can0 19FF0290#0101436972637569
(1637195733.637002) can0 19FF0290#027420380007FFFF
(1637195733.678950) can0 19FF0290#2012899820FF080C
(1637195733.679833) can0 19FF0290#2101436972637569
(1637195733.681939) can0 19FF0290#227420390008FFFF
(1637195733.704898) can0 19FF0290#4012899820FF090C
(1637195733.705888) can0 19FF0290#4101436972637569
(1637195733.707892) can0 19FF0290#427420313009FFFF
(1637195733.750887) can0 19FF0290#6012899820FF0A0C
(1637195733.751854) can0 19FF0290#6101436972637569
(1637195733.754088) can0 19FF0290#62742031310AFFFF
(1637195733.769948) can0 0DED9050#A0170100EF01F804
(1637195733.770446) can0 0DED9050#A1018998023D1603
(1637195733.771081) can0 0DED9050#A20100FC06657262
(1637195733.771435) can0 0DED9050#A3206434FFFFFFFF
(1637195733.775829) can0 0DED5090#20080200EF010004
(1637195733.776876) can0 0DED5090#210505FFFFFFFFFF
(1637195733.779241) can0 19FF0290#8012899820FF0B0C
(1637195733.780740) can0 19FF0290#8101436972637569
(1637195733.782829) can0 19FF0290#82742031320BFFFF
(1637195733.825794) can0 19FF0290#A012899820FF0C0C
(1637195733.826798) can0 19FF0290#A101436972637569
(1637195733.828935) can0 19FF0290#A2742031000CFFFF
(1637195733.850960) can0 19FF0290#C012899820FF0D0C
(1637195733.851973) can0 19FF0290#C101436972637569
(1637195733.853869) can0 19FF0290#C2742032000DFFFF
(1637195733.896895) can0 19FF0290#E012899820FF0E0C
(1637195733.897910) can0 19FF0290#E101436972637569
(1637195733.899951) can0 19FF0290#E2742033000EFFFF
(1637195733.910327) can0 0DED9050#C0170100EF01F804
(1637195733.910893) can0 0DED9050#C1018998023D1603
(1637195733.911409) can0 0DED9050#C20100FC06657262
(1637195733.912135) can0 0DED9050#C3206434FFFFFFFF
(1637195733.921837) can0 0DED5090#40080200EF010004
(1637195733.923184) can0 0DED5090#410505FFFFFFFFFF
(1637195733.925301) can0 19FF0290#0012899820FF0F0C
(1637195733.926924) can0 19FF0290#0101436972637569
(1637195733.928908) can0 19FF0290#02742034000FFFFF
(1637195733.972006) can0 19FF0290#2012899820FF100C
(1637195733.972986) can0 19FF0290#2101436972637569
(1637195733.975048) can0 19FF0290#227420350010FFFF
(1637195733.998039) can0 19FF0290#4012899820FF110C
(1637195733.999159) can0 19FF0290#4101436972637569
(1637195734.001173) can0 19FF0290#427420360011FFFF
(1637195734.042806) can0 19FF0290#6012899820FF120C
(1637195734.043838) can0 19FF0290#6101436972637569
(1637195734.045939) can0 19FF0290#627420370012FFFF
(1637195734.051917) can0 0DED9050#E0170100EF01F804
(1637195734.052393) can0 0DED9050#E1018998023D1603
(1637195734.052967) can0 0DED9050#E20100FC06657262
(1637195734.053574) can0 0DED9050#E3206434FFFFFFFF
(1637195734.068994) can0 0DED5090#60080200EF010004
(1637195734.069855) can0 0DED5090#610505FFFFFFFFFF
(1637195734.183056) can0 18EEFF50#22E13111008232C0
(1637195734.183082) can0 18EAFF50#00EE00
(1637195734.193994) can0 18EEFF90#C9831916208C3CC0
(1637195734.282384) can0 19EEFF50#00220000E80000EB
(1637195734.283086) can0 19EEFF50#010000EC0000EE00
(1637195734.283587) can0 19EEFF50#0200EF0000ED0100
(1637195734.284030) can0 19EEFF50#03EE0100EF0111F0
(1637195734.284738) can0 19EEFF50#040114F00116F001
(1637195734.285101) can0 19EEFF50#20190100E80000EA
(1637195734.285960) can0 19EEFF50#210000EB0000EC00
(1637195734.286377) can0 19EEFF50#2200EE0000EF0000
(1637195734.286797) can0 19EEFF50#23ED0100EF01FFFF
(1637195734.287124) can0 18EA5050#00EE01
(1637195734.296039) can0 0DED9050#00170100EF01F804
(1637195734.297115) can0 0DED9050#01018998023D1603
(1637195734.297256) can0 0DED9050#020100FC06657262
(1637195734.297777) can0 0DED9050#03206434FFFFFFFF
(1637195734.317125) can0 0DED5090#80080200EF010004
(1637195734.318098) can0 0DED5090#810505FFFFFFFFFF
(1637195734.382812) can0 18EA9050#16F001
(1637195734.401396) can0 19F01690#6043170143656E74
(1637195734.401879) can0 19F01690#61657220636F6E73
(1637195734.403921) can0 19F01690#626F6C65206C6F63
(1637195734.406149) can0 19F01690#636B657202012A01
(1637195734.408318) can0 19F01690#644D61726574726F
(1637195734.410170) can0 19F01690#656E20312D383636
(1637195734.411962) can0 19F01690#662D3535302D3931
(1637195734.414076) can0 19F01690#673030207777772E
(1637195734.416175) can0 19F01690#686D61726574726F
(1637195734.417919) can0 19F01690#696E2E636F6D00FF
(1637195734.500144) can0 0DED9050#20170100EF01F804
(1637195734.500580) can0 0DED9050#21018998023D1603
(1637195734.501062) can0 0DED9050#220100FC06657262
(1637195734.501728) can0 0DED9050#23206434FFFFFFFF
(1637195734.522299) can0 0DED5090#A0080200EF010004
(1637195734.523136) can0 0DED5090#A10505FFFFFFFFFF
(1637195734.786152) can0 0DEDFF50#80080200EF010004
(1637195734.786891) can0 0DEDFF50#810010FFFFFFFFFF
(1637195734.787333) can0 0DED5050#40110100EF01F804
(1637195734.787725) can0 0DED5050#4101899802B10303
(1637195734.788367) can0 0DED5050#42010056FFFFFFFF
(1637195734.867856) can0 0DED9050#60170100EF01F804
(1637195734.868413) can0 0DED9050#61018998023D1603
(1637195734.868861) can0 0DED9050#620100FC06657262
(1637195734.869480) can0 0DED9050#63206434FFFFFFFF
(1637195734.871826) can0 0DED5090#C0080200EF010004
(1637195734.873036) can0 0DED5090#C10505FFFFFFFFFF
(1637195735.256531) can0 0DED9050#80170100EF01F804
(1637195735.256791) can0 0DED9050#81018998023D1603
(1637195735.257515) can0 0DED9050#820100FC06657262
(1637195735.258040) can0 0DED9050#83206434FFFFFFFF
(1637195735.263320) can0 0DED5090#E0080200EF010004
(1637195735.264054) can0 0DED5090#E10505FFFFFFFFFF
(1637195735.729019) can0 18EA9050#14FF00
(1637195735.738976) can0 1CFF1490#B098010000451000
(1637195736.133549) can0 1CEF9050#B098058000000300
(1637195736.146854) can0 1DFF6990#000EB09803800000
(1637195736.147833) can0 1DFF6990#012019030A001400
(1637195736.150149) can0 1DFF6990#02FFFFFFFFFFFFFF
(1637195736.541979) can0 1CEF9050#B098054000000300
(1637195736.560266) can0 1DFF6990#200EB09803400000
(1637195736.562244) can0 1DFF6990#212219050A001400
(1637195736.564332) can0 1DFF6990#22FFFFFFFFFFFFFF
(1637195736.896194) can0 1CEF9050#B098052000000300
(1637195736.913121) can0 1DFF6990#400EB09803200000
(1637195736.915407) can0 1DFF6990#4122190505001400
(1637195736.917187) can0 1DFF6990#42FFFFFFFFFFFFFF
(1637195737.251560) can0 1CEF9050#B098051000000300
(1637195737.265163) can0 1DFF6990#600EB09803100000
(1637195737.267166) can0 1DFF6990#612219050C001400
(1637195737.269149) can0 1DFF6990#62FFFFFFFFFFFFFF
(1637195737.541006) can0 1CFF1490#B098010000451000
(1637195737.606595) can0 1CEF9050#B098050800000300
(1637195737.621904) can0 1DFF6990#800EB09803080000
(1637195737.624162) can0 1DFF6990#812219050A001400
(1637195737.626001) can0 1DFF6990#82FFFFFFFFFFFFFF
(1637195737.963046) can0 1CEF9050#B098050400000300
(1637195737.975321) can0 1DFF6990#A00EB09803040000
(1637195737.977390) can0 1DFF6990#A122190505001400
(1637195737.979474) can0 1DFF6990#A2FFFFFFFFFFFFFF
(1637195738.318280) can0 1CEF9050#B098050200000300
(1637195738.328523) can0 1DFF6990#C00EB09803020000
(1637195738.330227) can0 1DFF6990#C12219050C001400
(1637195738.332418) can0 1DFF6990#C2FFFFFFFFFFFFFF
(1637195738.672384) can0 1CEF9050#B098050100000300
(1637195738.681259) can0 1DFF6990#E00EB09803010000
(1637195738.683214) can0 1DFF6990#E12219050A001400
(1637195738.685167) can0 1DFF6990#E2FFFFFFFFFFFFFF
(1637195739.026664) can0 1CEF9050#B098050080000300
(1637195739.033435) can0 1DFF6990#000EB09803008000
(1637195739.035290) can0 1DFF6990#0122190505001400
(1637195739.037379) can0 1DFF6990#02FFFFFFFFFFFFFF
(1637195739.384010) can0 1CEF9050#B098050040000300
(1637195739.386452) can0 1DFF6990#200EB09803004000
(1637195739.388166) can0 1DFF6990#212219050A001400
(1637195739.390174) can0 1DFF6990#22FFFFFFFFFFFFFF
(1637195739.739293) can0 1CEF9050#B098050020000300
(1637195739.743689) can0 1DFF6990#400EB09803002000
(1637195739.745277) can0 1DFF6990#412219050A001400
(1637195739.747182) can0 1DFF6990#42FFFFFFFFFFFFFF
(1637195740.094599) can0 1CEF9050#B098050010000300
(1637195740.096566) can0 1DFF6990#600EB09803001000
(1637195740.098204) can0 1DFF6990#6122190505001400
(1637195740.100453) can0 1DFF6990#62FFFFFFFFFFFFFF
(1637195740.500721) can0 1CEF9050#B098050000000100
(1637195740.510405) can0 1CFF1490#B098010000451000
(1637195740.905890) can0 1CEF9050#B098058000000200
(1637195740.918439) can0 1DFF6990#800DB09802800000
(1637195740.920333) can0 1DFF6990#8100001480000000
(1637195741.261037) can0 1CEF9050#B098054000000200
(1637195741.269783) can0 1DFF6990#A00DB09802400000
(1637195741.272548) can0 1DFF6990#A10C0014C0000000
(1637195741.617238) can0 1CEF9050#B098052000000200
(1637195741.619723) can0 1DFF6990#C00DB09802200000
(1637195741.621334) can0 1DFF6990#C10B0014C0000000
(1637195741.689567) can0 1CFF1490#B098010000451000
(1637195741.718812) can0 1CEF9050#B098051000000200
(1637195741.729545) can0 1DFF6990#E00DB09802100000
(1637195741.731273) can0 1DFF6990#E100001480000000
(1637195742.023286) can0 1CEF9050#B098050800000200
(1637195742.039643) can0 1DFF6990#000DB09802080000
(1637195742.041495) can0 1DFF6990#0100001480000000
(1637195742.378944) can0 1CEF9050#B098050400000200
(1637195742.390502) can0 1DFF6990#200DB09802040000
(1637195742.392295) can0 1DFF6990#210B0014C0000000
(1637195742.784985) can0 1CEF9050#B098050200000200
(1637195742.802812) can0 1DFF6990#400DB09802020000
(1637195742.804622) can0 1DFF6990#410C0014C0000000
(1637195743.189703) can0 1CEF9050#B098050100000200
(1637195743.194593) can0 1DFF6990#600DB09802010000
(1637195743.196400) can0 1DFF6990#6100001480000000
(1637195743.595574) can0 1CEF9050#B098050080000200
(1637195743.606565) can0 1DFF6990#800DB09802008000
(1637195743.608359) can0 1DFF6990#8100001480000000
(1637195743.732936) can0 0DF20C90#FF00000000000000
(1637195743.733374) can0 19F30790#FF000000000000FF
(1637195743.733836) can0 0DF20C90#FF01020000640000
(1637195743.734407) can0 19F30790#FF017800000000FF
(1637195743.734961) can0 0DF20C90#FF02020000640000
(1637195743.735704) can0 19F30790#FF027700000000FF
(1637195743.736132) can0 0DF20C90#FF03000000000000
(1637195743.736709) can0 19F30790#FF030000000000FF
(1637195743.737280) can0 0DF20C90#FF04000000000000
(1637195743.737856) can0 19F30790#FF040000000000FF
(1637195743.738653) can0 0DF20C90#FF05020000640000
(1637195743.739162) can0 19F30790#FF057700000000FF
(1637195743.739733) can0 0DF20C90#FF06020000640000
(1637195743.740203) can0 19F30790#FF067800000000FF
(1637195743.740777) can0 0DF20C90#FF07000000000000
(1637195743.741539) can0 19F30790#FF070000000000FF
(1637195743.742155) can0 0DF20C90#FF08000000000000
(1637195743.742567) can0 19F30790#FF080000000000FF
(1637195743.743405) can0 0DF20C90#FF09000000000000
(1637195743.743797) can0 19F30790#FF090000000000FF
(1637195743.744465) can0 0DF20C90#FF0A000000000000
(1637195743.745002) can0 19F30790#FF0A0000000000FF
(1637195743.745617) can0 0DF20C90#FF0B000000000000
(1637195743.746303) can0 19F30790#FF0B0000000000FF
(1637195743.758554) can0 0DF20D90#2014140000C0FFFF
(1637195743.759192) can0 1DF01190#307520FFFFFFFFFF
(1637195743.799703) can0 1CEF9050#B098050040000200
(1637195743.819974) can0 1DFF6990#A00DB09802004000
(1637195743.821753) can0 1DFF6990#A100001480000000
(1637195743.951966) can0 1CEF9050#B098050020000200
(1637195743.966798) can0 1DFF6990#C00DB09802002000
(1637195743.968425) can0 1DFF6990#C100001480000000
(1637195744.236742) can0 18EEFF50#22E13111008232C0
(1637195744.236771) can0 18EAFF50#00EE00
(1637195744.255814) can0 18EEFF90#C9831916208C3CC0
(1637195744.256018) can0 1CEF9050#B098050010000200
(1637195744.276666) can0 1DFF6990#E00DB09802001000
(1637195744.278290) can0 1DFF6990#E100001480000000
(1637195745.814476) can0 1CFF1490#B098010000451000
(1637195745.828767) can0 18EA9050#0DF201
(1637195745.834453) can0 0DF20D90#2014140000C0FFFF
(1637195746.234584) can0 1CEF9050#B0984D1300000000
(1637195746.242868) can0 1CFF1490#B0984D130000007F
(1637195746.373635) can0 1DF01150#60EA00CFFFFFFFFF
(1637195746.386880) can0 1CEF9050#B0984D1100000000
(1637195746.405925) can0 1CFF1490#B0984D110000007F
(1637195746.602842) can0 1CEF9050#B098050000000400
(1637195746.609419) can0 1CFF1490#B09804C983190020
(1637195746.966261) can0 1CEF9050#B098050000000700
(1637195746.976784) can0 1CFF1490#B0980704A60000FF
(1637195747.372216) can0 1CEF9050#B098050000000A00
(1637195747.384548) can0 1DFF6990#000BB0980A030000
(1637195747.386251) can0 1DFF6990#0101328000FFFFFF
(1637195747.728689) can0 1CEF9050#B098051000000A00
(1637195747.735900) can0 1DFF6990#200BB0980A130000
(1637195747.737589) can0 1DFF6990#2102324000FFFFFF
(1637195748.133729) can0 1CEF9050#B098052000000A00
(1637195748.151887) can0 1DFF6990#400BB0980A230000
(1637195748.153286) can0 1DFF6990#4103322000FFFFFF
(1637195748.490210) can0 1CEF9050#B098053000000A00
(1637195748.502952) can0 1DFF6990#600BB0980A330000
(1637195748.504484) can0 1DFF6990#6104321000FFFFFF
(1637195748.845496) can0 1CEF9050#B098054000000A00
(1637195748.853266) can0 1DFF6990#800BB0980A430000
(1637195748.854828) can0 1DFF6990#8105320800FFFFFF
(1637195749.200592) can0 1CEF9050#B098055000000A00
(1637195749.202921) can0 1DFF6990#A00BB0980A530000
(1637195749.204708) can0 1DFF6990#A106320400FFFFFF
(1637195749.555091) can0 1CEF9050#B098056000000A00
(1637195749.573195) can0 1DFF6990#C00BB0980A630000
(1637195749.574635) can0 1DFF6990#C107320200FFFFFF
(1637195749.911128) can0 1CEF9050#B098057000000A00
(1637195749.927292) can0 1CFF1490#B098010000451000
(1637195749.927319) can0 1DFF6990#E00BB0980A730000
(1637195749.928764) can0 1DFF6990#E108320100FFFFFF
(1637195750.316333) can0 1CEF9050#B098058000000A00
(1637195750.316966) can0 1DFF6990#000BB0980A830000
(1637195750.318888) can0 1DFF6990#0109320080FFFFFF
(1637195750.671566) can0 1CEF9050#B098059000000A00
(1637195750.688105) can0 1DFF6990#200BB0980A930000
(1637195750.689629) can0 1DFF6990#210A320040FFFFFF
(1637195751.077413) can0 1CEF9050#B09805A000000A00
(1637195751.080053) can0 1DFF6990#400BB0980AA30000
(1637195751.081710) can0 1DFF6990#410B320020FFFFFF
(1637195751.433330) can0 1CEF9050#B09805B000000A00
(1637195751.449837) can0 1DFF6990#600BB0980AB30000
(1637195751.451435) can0 1DFF6990#610C320010FFFFFF
(1637195751.838926) can0 1CEF9050#B09805C000000A00
(1637195751.842060) can0 1DFF6990#800BB0980AC30000
(1637195751.843555) can0 1DFF6990#8101338000FFFFFF
(1637195752.193970) can0 1CEF9050#B09805D000000A00
(1637195752.196071) can0 1DFF6990#A00BB0980AD30000
(1637195752.197833) can0 1DFF6990#A103334000FFFFFF
(1637195752.600010) can0 1CEF9050#B09805E000000A00
(1637195752.607167) can0 1DFF6990#C00BB0980AE30000
(1637195752.608795) can0 1DFF6990#C105332000FFFFFF
(1637195752.955351) can0 1CEF9050#B09805F000000A00
(1637195752.956133) can0 1DFF6990#E00BB0980AF30000
(1637195752.957731) can0 1DFF6990#E107331000FFFFFF
(1637195753.310594) can0 1CEF9050#B098050100000A00
(1637195753.327186) can0 1DFF6990#000BB0980A031000
(1637195753.328820) can0 1DFF6990#0109330800FFFFFF
(1637195753.665810) can0 1CEF9050#B098051100000A00
(1637195753.676714) can0 1DFF6990#200BB0980A131000
(1637195753.677696) can0 1DFF6990#210B330400FFFFFF
(1637195754.050964) can0 0DF20D90#2014140000C0FFFF
(1637195754.051524) can0 1CFF1490#B098010000451000
(1637195754.071223) can0 1CEF9050#B098052100000A00
(1637195754.090904) can0 1DFF6990#400BB0980A231000
(1637195754.092393) can0 1DFF6990#4101348000FFFFFF
(1637195754.300775) can0 18EEFF50#22E13111008232C0
(1637195754.301091) can0 18EAFF50#00EE00
(1637195754.318941) can0 18EEFF90#C9831916208C3CC0
(1637195754.324522) can0 1CEF9050#B098053100000A00
(1637195754.339138) can0 1DFF6990#600BB0980A331000
(1637195754.340702) can0 1DFF6990#6103344000FFFFFF
(1637195754.427047) can0 1CEF9050#B098054100000A00
(1637195754.445564) can0 1DFF6990#800BB0980A431000
(1637195754.446706) can0 1DFF6990#8105342000FFFFFF
(1637195754.782646) can0 1CEF9050#B098055100000A00
(1637195754.796278) can0 1DFF6990#A00BB0980A531000
(1637195754.797916) can0 1DFF6990#A107341000FFFFFF
(1637195755.137735) can0 1CEF9050#B098056100000A00
(1637195755.146480) can0 1DFF6990#C00BB0980A631000
(1637195755.147971) can0 1DFF6990#C109340800FFFFFF
(1637195755.493040) can0 1CEF9050#B098057100000A00
(1637195755.496628) can0 1DFF6990#E00BB0980A731000
(1637195755.497797) can0 1DFF6990#E10B340400FFFFFF
(1637195755.899026) can0 1CEF9050#B098058100000A00
(1637195755.907404) can0 1DFF6990#000BB0980A831000
(1637195755.908726) can0 1DFF6990#010C340200FFFFFF
(1637195756.254220) can0 1CEF9050#B098059100000A00
(1637195756.260279) can0 1DFF6990#200BB0980A931016
(1637195756.261958) can0 1DFF6990#210D208000FFFFFF
(1637195756.609557) can0 1CEF9050#B09805A100000A00
(1637195756.610366) can0 1DFF6990#400BB0980AA31016
(1637195756.611956) can0 1DFF6990#410E204000FFFFFF
(1637195757.015576) can0 1CEF9050#B09805B100000A00
(1637195757.022368) can0 1DFF6990#600BB0980AB31016
(1637195757.024029) can0 1DFF6990#610F202000FFFFFF
(1637195757.370826) can0 1CEF9050#B09805C100000A00
(1637195757.372686) can0 1DFF6990#800BB0980AC31016
(1637195757.373801) can0 1DFF6990#8110201000FFFFFF
(1637195757.726160) can0 1CEF9050#B09805D100000A00
(1637195757.742494) can0 1DFF6990#A00BB0980AD31016
(1637195757.743905) can0 1DFF6990#A111200800FFFFFF
(1637195758.081295) can0 1CEF9050#B09805E100000A00
(1637195758.092374) can0 1DFF6990#C00BB0980AE31016
(1637195758.093642) can0 1DFF6990#C112200400FFFFFF
(1637195758.181756) can0 1CFF1490#B098010000451000
(1637195758.233673) can0 1CEF9050#B09805F100000A00
(1637195758.242539) can0 1DFF6990#E00BB0980AF31016
(1637195758.244005) can0 1DFF6990#E113200200FFFFFF
(1637195758.487454) can0 1CEF9050#B098050200000A00
(1637195758.490541) can0 1DFF6990#000BB0980A002000
(1637195758.492110) can0 1DFF6990#0101000000FFFFFF
(1637195758.894464) can0 1CEF9050#B098051200000A00
(1637195758.901839) can0 1DFF6990#200BB0980A102000
(1637195758.903050) can0 1DFF6990#2101000000FFFFFF
(1637195759.189846) can0 0DF20C90#FF00000000000000
(1637195759.190347) can0 19F30790#FF000000000000FF
(1637195759.191082) can0 0DF20C90#FF01020000640000
(1637195759.191575) can0 19F30790#FF017800000000FF
(1637195759.192005) can0 0DF20C90#FF02020000640000
(1637195759.192682) can0 19F30790#FF027700000000FF
(1637195759.193239) can0 0DF20C90#FF03000000000000
(1637195759.193699) can0 19F30790#FF030000000000FF
(1637195759.194362) can0 0DF20C90#FF04000000000000
(1637195759.195044) can0 19F30790#FF040000000000FF
(1637195759.195562) can0 0DF20C90#FF05020000640000
(1637195759.196120) can0 19F30790#FF057700000000FF
(1637195759.196713) can0 0DF20C90#FF06020000640000
(1637195759.197328) can0 19F30790#FF067800000000FF
(1637195759.197907) can0 0DF20C90#FF07000000000000
(1637195759.198514) can0 19F30790#FF070000000000FF
(1637195759.199193) can0 0DF20C90#FF08000000000000
(1637195759.199531) can0 19F30790#FF080000000000FF
(1637195759.200128) can0 0DF20C90#FF09000000000000
(1637195759.200812) can0 19F30790#FF090000000000FF
(1637195759.201448) can0 0DF20C90#FF0A000000000000
(1637195759.201952) can0 19F30790#FF0A0000000000FF
(1637195759.202633) can0 0DF20C90#FF0B000000000000
(1637195759.203000) can0 19F30790#FF0B0000000000FF
(1637195759.248430) can0 1CEF9050#B098052200000A00
(1637195759.250682) can0 1DFF6990#400BB0980A202000
(1637195759.252057) can0 1DFF6990#4101000000FFFFFF
(1637195759.603877) can0 1CEF9050#B098053200000A00
(1637195759.621569) can0 1DFF6990#600BB0980A302000
(1637195759.623244) can0 1DFF6990#6101000000FFFFFF
(1637195759.959171) can0 1CEF9050#B098050000000E00
(1637195759.970851) can0 1CFF1490#B0980E10FFFFFFFF
(1637195760.315446) can0 1CEF9050#B098050000001100
(1637195760.321903) can0 1CFF1490#B098110700000000
(1637195760.670144) can0 1CEF9050#B098050000001000
(1637195760.688352) can0 1DFF6990#800AB09810000000
(1637195760.689579) can0 1DFF6990#8100000000FFFFFF
(1637195761.025181) can0 1CEF9050#B098051000001000
(1637195761.038313) can0 1DFF6990#A00AB09810100000
(1637195761.039570) can0 1DFF6990#A100000000FFFFFF
(1637195761.380984) can0 1CEF9050#B098052000001000
(1637195761.388645) can0 1DFF6990#C00AB09810200000
(1637195761.389812) can0 1DFF6990#C100000000FFFFFF
(1637195761.786350) can0 1CEF9050#B098053000001000
(1637195761.799760) can0 1DFF6990#E00AB09810300000
(1637195761.801019) can0 1DFF6990#E100000000FFFFFF
(1637195762.141381) can0 1CEF9050#B098054000001000
(1637195762.149772) can0 1DFF6990#000AB09810400000
(1637195762.150939) can0 1DFF6990#0100000000FFFFFF
(1637195762.299939) can0 1CFF1490#B098010000451000
(1637195762.344403) can0 1CEF9050#B098055000001000
(1637195762.360872) can0 1DFF6990#200AB09810500000
(1637195762.361962) can0 1DFF6990#2100000000FFFFFF
(1637195762.496687) can0 1CEF9050#B098056000001000
(1637195762.507016) can0 1DFF6990#400AB09810600000
(1637195762.508277) can0 1DFF6990#4100000000FFFFFF
(1637195762.902544) can0 1CEF9050#B098057000001000
(1637195762.917945) can0 1DFF6990#600AB09810700000
(1637195762.919260) can0 1DFF6990#6100000000FFFFFF
(1637195763.308763) can0 1CEF9050#B098058000001000
(1637195763.329166) can0 1DFF6990#800AB09810800000
(1637195763.330067) can0 1DFF6990#8100000000FFFFFF
(1637195763.664328) can0 1CEF9050#B098059000001000
(1637195763.677988) can0 1DFF6990#A00AB09810900000
(1637195763.679365) can0 1DFF6990#A100000000FFFFFF
(1637195764.019387) can0 1CEF9050#B09805A000001000
(1637195764.027872) can0 1DFF6990#C00AB09810A00000
(1637195764.029066) can0 1DFF6990#C100000000FFFFFF
(1637195764.362006) can0 0DF20D90#2014140000C0FFFF
(1637195764.376542) can0 18EEFF50#22E13111008232C0
(1637195764.376582) can0 18EAFF50#00EE00
(1637195764.381832) can0 18EEFF90#C9831916208C3CC0
(1637195764.425209) can0 1CEF9050#B09805B000001000
(1637195764.443020) can0 1DFF6990#E00AB09810B00000
(1637195764.443970) can0 1DFF6990#E100000000FFFFFF
(1637195764.730368) can0 1CEF9050#B09805C000001000
(1637195764.731721) can0 1DFF6990#000AB09810C00000
(1637195764.732922) can0 1DFF6990#0100000000FFFFFF
(1637195765.085198) can0 1CEF9050#B09805D000001000
(1637195765.101940) can0 1DFF6990#200AB09810D00000
(1637195765.103389) can0 1DFF6990#2100000000FFFFFF
(1637195765.440341) can0 1CEF9050#B09805E000001000
(1637195765.452037) can0 1DFF6990#400AB09810E00000
(1637195765.453111) can0 1DFF6990#4100000000FFFFFF
(1637195765.795537) can0 1CEF9050#B09805F000001000
(1637195765.802277) can0 1DFF6990#600AB09810F00000
(1637195765.803094) can0 1DFF6990#6100000000FFFFFF
(1637195766.202559) can0 1CEF9050#B098050000001200
(1637195766.213164) can0 1CFF1490#B098120000000000
(1637195766.420767) can0 1CFF1490#B098010000451000
(1637195766.455912) can0 1CEF9050#B098050000001400
(1637195766.460708) can0 1CFF1490#B098140000001034
(1637195766.556652) can0 1CEF9050#B098050000001500
(1637195766.562956) can0 1CFF1490#B09815001E001600
(1637195767.297941) can0 1CEF9050#B098058000000200
(1637195767.317807) can0 1DFF6990#800DB09802800000
(1637195767.318955) can0 1DFF6990#8100001480000000
(1637195768.015601) can0 1CEF9050#B098054000000200
(1637195768.035149) can0 1DFF6990#A00DB09802400000
(1637195768.035928) can0 1DFF6990#A10C0014C0000000
(1637195768.831558) can0 1CEF9050#B098052000000200
(1637195768.838238) can0 1DFF6990#C00DB09802200000
(1637195768.839353) can0 1DFF6990#C10B0014C0000000
(1637195770.518520) can0 1CFF1490#B098010000451000
(1637195774.297992) can0 0DED9050#A00A010DF201F802
(1637195774.298409) can0 0DED9050#A101200201FFFFFF
(1637195774.306353) can0 0DF20C90#FF00020000640000
(1637195774.316269) can0 0DF20D90#2015140000C0FFFF
(1637195774.316805) can0 0DED5090#0007020DF2010002
(1637195774.318174) can0 0DED5090#0100FFFFFFFFFFFF
(1637195774.429701) can0 18EEFF50#22E13111008232C0
(1637195774.430053) can0 18EAFF50#00EE00
(1637195774.442548) can0 18EEFF90#C9831916208C3CC0
(1637195774.585961) can0 0DF20C90#FF00020000640000
(1637195774.586300) can0 19F30790#FF005000000000FF
(1637195774.586905) can0 0DF20C90#FF01020000640000
(1637195774.587485) can0 19F30790#FF017800000000FF
(1637195774.587971) can0 0DF20C90#FF02020000640000
(1637195774.588647) can0 19F30790#FF027700000000FF
(1637195774.589221) can0 0DF20C90#FF03000000000000
(1637195774.589744) can0 19F30790#FF030000000000FF
(1637195774.590309) can0 0DF20C90#FF04000000000000
(1637195774.590889) can0 19F30790#FF040000000000FF
(1637195774.591585) can0 0DF20C90#FF05020000640000
(1637195774.592033) can0 19F30790#FF057700000000FF
(1637195774.592591) can0 0DF20C90#FF06020000640000
(1637195774.593169) can0 19F30790#FF067800000000FF
(1637195774.593849) can0 0DF20C90#FF07000000000000
(1637195774.594292) can0 19F30790#FF070000000000FF
(1637195774.594991) can0 0DF20C90#FF08000000000000
(1637195774.595659) can0 19F30790#FF080000000000FF
(1637195774.596089) can0 0DF20C90#FF09000000000000
(1637195774.596690) can0 19F30790#FF090000000000FF
(1637195774.597265) can0 0DF20C90#FF0A000000000000
(1637195774.597834) can0 19F30790#FF0A0000000000FF
(1637195774.598432) can0 0DF20C90#FF0B000000000000
(1637195774.599142) can0 19F30790#FF0B0000000000FF
(1637195774.694402) can0 0DF20D90#2015140000C0FFFF
(1637195774.694431) can0 1DF01190#307521FFFFFFFFFF
(1637195774.694445) can0 1CFF1490#B098010000451000
(1637195778.781883) can0 1CFF1490#B098010000451000
(1637195782.870032) can0 1CFF1490#B098010000451000
(1637195784.483189) can0 18EEFF50#22E13111008232C0
(1637195784.483581) can0 18EAFF50#00EE00
(1637195784.501902) can0 18EEFF90#C9831916208C3CC0
(1637195784.914252) can0 0DF20D90#2015140000C0FFFF
(1637195786.815445) can0 1DF01150#60EA01CFFFFFFFFF
(1637195786.958193) can0 1CFF1490#B098010000451000
(1637195790.002316) can0 0DF20C90#FF00020000640000
(1637195790.002356) can0 19F30790#FF007700540000FF
(1637195790.002927) can0 0DF20C90#FF01020000640000
(1637195790.003354) can0 19F30790#FF017800000000FF
(1637195790.003962) can0 0DF20C90#FF02020000640000
(1637195790.004612) can0 19F30790#FF027700000000FF
(1637195790.005165) can0 0DF20C90#FF03000000000000
(1637195790.005758) can0 19F30790#FF030000000000FF
(1637195790.006321) can0 0DF20C90#FF04000000000000
(1637195790.006958) can0 19F30790#FF040000000000FF
(1637195790.007508) can0 0DF20C90#FF05020000640000
(1637195790.008107) can0 19F30790#FF057700000000FF
(1637195790.008669) can0 0DF20C90#FF06020000640000
(1637195790.009237) can0 19F30790#FF067800000000FF
(1637195790.009775) can0 0DF20C90#FF07000000000000
(1637195790.010415) can0 19F30790#FF070000000000FF
(1637195790.011024) can0 0DF20C90#FF08000000000000
(1637195790.011649) can0 19F30790#FF080000000000FF
(1637195790.011988) can0 0DF20C90#FF09000000000000
(1637195790.012666) can0 19F30790#FF090000000000FF
(1637195790.013225) can0 0DF20C90#FF0A000000000000
(1637195790.013824) can0 19F30790#FF0A0000000000FF
(1637195790.014399) can0 0DF20C90#FF0B000000000000
(1637195790.015002) can0 19F30790#FF0B0000000000FF
(1637195791.046489) can0 1CFF1490#B098010000451000
(1637195794.535933) can0 18EEFF50#22E13111008232C0
(1637195794.535968) can0 18EAFF50#00EE00
(1637195794.538675) can0 18EEFF90#C9831916208C3CC0
(1637195795.135067) can0 0DF20D90#2015140000C0FFFF
(1637195795.135287) can0 1CFF1490#B098010000451000
(1637195799.223195) can0 1CFF1490#B098010000451000
(1637195803.311379) can0 1CFF1490#B098010000451000
(1637195804.588641) can0 18EEFF50#22E13111008232C0
(1637195804.588675) can0 18EAFF50#00EE00
(1637195804.596389) can0 18EEFF90#C9831916208C3CC0
(1637195805.331181) can0 0DF20C90#FF00020000640000
(1637195805.331216) can0 19F30790#FF0077000E0100FF
(1637195805.331907) can0 0DF20C90#FF01020000640000
(1637195805.332377) can0 19F30790#FF017700000000FF
(1637195805.332994) can0 0DF20C90#FF02020000640000
(1637195805.333443) can0 19F30790#FF027600000000FF
(1637195805.334112) can0 0DF20C90#FF03000000000000
(1637195805.334914) can0 19F30790#FF030000000000FF
(1637195805.335268) can0 0DF20C90#FF04000000000000
(1637195805.335987) can0 19F30790#FF040000000000FF
(1637195805.336426) can0 0DF20C90#FF05020000640000
(1637195805.337076) can0 19F30790#FF057600000000FF
(1637195805.337633) can0 0DF20C90#FF06020000640000
(1637195805.338221) can0 19F30790#FF067700000000FF
(1637195805.338788) can0 0DF20C90#FF07000000000000
(1637195805.339337) can0 19F30790#FF070000000000FF
(1637195805.339951) can0 0DF20C90#FF08000000000000
(1637195805.340548) can0 19F30790#FF080000000000FF
(1637195805.341082) can0 0DF20C90#FF09000000000000
(1637195805.341730) can0 19F30790#FF090000000000FF
(1637195805.342300) can0 0DF20C90#FF0A000000000000
(1637195805.342774) can0 19F30790#FF0A0000000000FF
(1637195805.343402) can0 0DF20C90#FF0B000000000000
(1637195805.343965) can0 19F30790#FF0B0000000000FF
(1637195805.356602) can0 0DF20D90#2015140000C0FFFF
(1637195805.356915) can0 1DF01190#307522FFFFFFFFFF
(1637195807.400588) can0 1CFF1490#B098010000451000
(1637195808.277750) can0 0DF20C90#FF00030001000000
(1637195808.298020) can0 0DF20D90#2016140000C0FFFF
(1637195811.570889) can0 1CFF1490#B098010000451000
(1637195814.572652) can0 1CEF9050#B098051000000200
(1637195814.593845) can0 1DFF6990#E00DB09802100000
(1637195814.595667) can0 1DFF6990#E100001480000000
(1637195814.654928) can0 18EEFF50#22E13111008232C0
(1637195814.654950) can0 18EAFF50#00EE00
(1637195814.658993) can0 18EEFF90#C9831916208C3CC0
(1637195815.147431) can0 1CEF9050#B098050800000200
(1637195815.148861) can0 1DFF6990#000DB09802080000
(1637195815.150665) can0 1DFF6990#0100001480000000
(1637195815.666890) can0 0DF20D90#2016140000C0FFFF
(1637195815.667466) can0 1CFF1490#B098010000451000
(1637195815.953891) can0 1CEF9050#B098050400000200
(1637195815.973225) can0 1DFF6990#200DB09802040000
(1637195815.974992) can0 1DFF6990#210B0014C0000000
(1637195816.773262) can0 1CEF9050#B098050200000200
(1637195816.793581) can0 1DFF6990#400DB09802020000
(1637195816.794897) can0 1DFF6990#410C0014C0000000
(1637195817.586151) can0 1CEF9050#B098050100000200
(1637195817.592037) can0 1DFF6990#600DB09802010000
(1637195817.593878) can0 1DFF6990#6100001480000000
(1637195818.396693) can0 1CEF9050#B098050080000200
(1637195818.416455) can0 1DFF6990#800DB09802008000
(1637195818.418353) can0 1DFF6990#8100001480000000
(1637195819.212097) can0 1CEF9050#B098050040000200
(1637195819.216292) can0 1DFF6990#A00DB09802004000
(1637195819.218053) can0 1DFF6990#A100001480000000
(1637195819.774216) can0 1CFF1490#B098010000451000
(1637195820.023164) can0 1CEF9050#B098050020000200
(1637195820.039203) can0 1DFF6990#C00DB09802002000
(1637195820.040768) can0 1DFF6990#C100001480000000
(1637195820.776647) can0 0DF20C90#FF00030001000000
(1637195820.777061) can0 19F30790#FF000000000000FF
(1637195820.777810) can0 0DF20C90#FF01020000640000
(1637195820.778270) can0 19F30790#FF017800000000FF
(1637195820.778758) can0 0DF20C90#FF02020000640000
(1637195820.779293) can0 19F30790#FF027700000000FF
(1637195820.779875) can0 0DF20C90#FF03000000000000
(1637195820.780543) can0 19F30790#FF030000000000FF
(1637195820.781098) can0 0DF20C90#FF04000000000000
(1637195820.781641) can0 19F30790#FF040000000000FF
(1637195820.782265) can0 0DF20C90#FF05020000640000
(1637195820.782877) can0 19F30790#FF057700000000FF
(1637195820.783391) can0 0DF20C90#FF06020000640000
(1637195820.783930) can0 19F30790#FF067800000000FF
(1637195820.784601) can0 0DF20C90#FF07000000000000
(1637195820.785243) can0 19F30790#FF070000000000FF
(1637195820.785694) can0 0DF20C90#FF08000000000000
(1637195820.786350) can0 19F30790#FF080000000000FF
(1637195820.786823) can0 0DF20C90#FF09000000000000
(1637195820.787488) can0 19F30790#FF090000000000FF
(1637195820.788059) can0 0DF20C90#FF0A000000000000
(1637195820.788626) can0 19F30790#FF0A0000000000FF
(1637195820.789171) can0 0DF20C90#FF0B000000000000
(1637195820.789769) can0 19F30790#FF0B0000000000FF
(1637195820.835111) can0 1CEF9050#B098050010000200
(1637195820.837212) can0 1DFF6990#E00DB09802001000
(1637195820.838965) can0 1DFF6990#E100001480000000
(1637195821.641665) can0 1CEF9050#B098058000000200
(1637195821.657610) can0 1DFF6990#000DB09802800000
(1637195821.659111) can0 1DFF6990#01000014E0000000
(1637195822.458418) can0 1CEF9050#B098054000000200
(1637195822.461483) can0 1DFF6990#200DB09802400000
(1637195822.463364) can0 1DFF6990#210C0014C0000000
(1637195823.265079) can0 1CEF9050#B098052000000200
(1637195823.280216) can0 1DFF6990#400DB09802200000
(1637195823.281874) can0 1DFF6990#410B0014C0000000
(1637195823.879657) can0 1CFF1490#B098010000451000
(1637195824.085251) can0 1CEF9050#B098051000000200
(1637195824.103638) can0 1DFF6990#600DB09802100000
(1637195824.105185) can0 1DFF6990#6100001480000000
(1637195824.694724) can0 18EEFF50#22E13111008232C0
(1637195824.694752) can0 18EAFF50#00EE00
(1637195824.698428) can0 1CEF9050#B098050800000200
(1637195824.698815) can0 18EEFF90#C9831916208C3CC0
(1637195824.718690) can0 1DFF6990#800DB09802080000
(1637195824.720332) can0 1DFF6990#8100001480000000
(1637195825.305514) can0 1CEF9050#B098050400000200
(1637195825.313867) can0 1DFF6990#A00DB09802040000
(1637195825.315277) can0 1DFF6990#A10B0014C0000000
(1637195825.932878) can0 0DF20D90#2016140000C0FFFF
(1637195826.119502) can0 1CEF9050#B098050200000200
(1637195826.136931) can0 1DFF6990#C00DB09802020000
(1637195826.138446) can0 1DFF6990#C10C0014C0000000
(1637195826.927583) can0 1CEF9050#B098050100000200
(1637195826.934914) can0 1DFF6990#E00DB09802010000
(1637195826.936116) can0 1DFF6990#E100001480000000
(1637195827.557085) can0 1DF01150#60EA02CFFFFFFFFF
(1637195827.739702) can0 1CEF9050#B098050080000200
(1637195827.755025) can0 1DFF6990#000DB09802008000
(1637195827.756412) can0 1DFF6990#0100001480000000
(1637195827.987906) can0 1CFF1490#B098010000451000
(1637195828.352360) can0 1CEF9050#B098050040000200
(1637195828.355386) can0 1DFF6990#200DB09802004000
(1637195828.356323) can0 1DFF6990#2100001480000000
(1637195829.162134) can0 1CEF9050#B098050020000200
(1637195829.173780) can0 1DFF6990#400DB09802002000
(1637195829.175054) can0 1DFF6990#4100001480000000
(1637195829.978647) can0 1CEF9050#B098050010000200
(1637195829.993005) can0 1DFF6990#600DB09802001000
(1637195829.994438) can0 1DFF6990#6100001480000000
(1637195830.788100) can0 1CEF9050#B098058000000200
(1637195830.795091) can0 1DFF6990#800DB09802800000
(1637195830.796688) can0 1DFF6990#81000014E0000000
(1637195831.396255) can0 1CEF9050#B098054000000200
(1637195831.409963) can0 1DFF6990#A00DB09802400000
(1637195831.411341) can0 1DFF6990#A10C0014C0000000
(1637195832.004965) can0 1CEF9050#B098052000000200
(1637195832.024955) can0 1DFF6990#C00DB09802200000
(1637195832.026476) can0 1DFF6990#C10B0014C0000000
(1637195832.093958) can0 1CFF1490#B098010000451000
(1637195832.610213) can0 1CEF9050#B098051000000200
(1637195832.624007) can0 1DFF6990#E00DB09802100000
(1637195832.625505) can0 1DFF6990#E100001480000000
(1637195833.426183) can0 1CEF9050#B098050800000200
(1637195833.443162) can0 1DFF6990#000DB09802080000
(1637195833.444526) can0 1DFF6990#0100001480000000
(1637195834.232905) can0 1CEF9050#B098050400000200
(1637195834.246230) can0 1DFF6990#200DB09802040000
(1637195834.247261) can0 1DFF6990#210B0014C0000000
(1637195834.771700) can0 18EEFF50#22E13111008232C0
(1637195834.772815) can0 18EAFF50#00EE00
(1637195834.778824) can0 18EEFF90#C9831916208C3CC0
(1637195835.048844) can0 1CEF9050#B098050200000200
(1637195835.064994) can0 1DFF6990#400DB09802020000
(1637195835.066458) can0 1DFF6990#410C0014C0000000
(1637195835.664675) can0 1CEF9050#B098050100000200
(1637195835.680081) can0 1DFF6990#600DB09802010000
(1637195835.681356) can0 1DFF6990#6100001480000000
(1637195836.173211) can0 0DF20C90#FF00030001000000
(1637195836.173222) can0 19F30790#FF000000000000FF
(1637195836.173451) can0 0DF20C90#FF01020000640000
(1637195836.174032) can0 19F30790#FF017800000000FF
(1637195836.174609) can0 0DF20C90#FF02020000640000
(1637195836.176109) can0 19F30790#FF027700000000FF
(1637195836.176117) can0 0DF20C90#FF03000000000000
(1637195836.177161) can0 19F30790#FF030000000000FF
(1637195836.177186) can0 0DF20C90#FF04000000000000
(1637195836.178059) can0 19F30790#FF040000000000FF
(1637195836.178944) can0 0DF20C90#FF05020000640000
(1637195836.178954) can0 19F30790#FF057700000000FF
(1637195836.180049) can0 0DF20C90#FF06020000640000
(1637195836.180057) can0 19F30790#FF067800000000FF
(1637195836.180591) can0 0DF20C90#FF07000000000000
(1637195836.181020) can0 19F30790#FF070000000000FF
(1637195836.182052) can0 0DF20C90#FF08000000000000
(1637195836.182997) can0 19F30790#FF080000000000FF
(1637195836.183005) can0 0DF20C90#FF09000000000000
(1637195836.183375) can0 19F30790#FF090000000000FF
(1637195836.184376) can0 0DF20C90#FF0A000000000000
(1637195836.184962) can0 19F30790#FF0A0000000000FF
(1637195836.185545) can0 0DF20C90#FF0B000000000000
(1637195836.185764) can0 19F30790#FF0B0000000000FF
(1637195836.198572) can0 0DF20D90#2016140000C0FFFF
(1637195836.198583) can0 1DF01190#307523FFFFFFFFFF
(1637195836.199390) can0 1CFF1490#B098010000451000
(1637195836.473640) can0 1CEF9050#B098050080000200
(1637195836.483208) can0 1DFF6990#800DB09802008000
(1637195836.484352) can0 1DFF6990#8100001480000000
(1637195837.086783) can0 1CEF9050#B098050040000200
(1637195837.098103) can0 1DFF6990#A00DB09802004000
(1637195837.099414) can0 1DFF6990#A100001480000000
(1637195837.893452) can0 1CEF9050#B098050020000200
(1637195837.897969) can0 1DFF6990#C00DB09802002000
(1637195837.898595) can0 1DFF6990#C100001480000000
(1637195838.500214) can0 1CEF9050#B098050010000200
(1637195838.516353) can0 1DFF6990#E00DB09802001000
(1637195838.517383) can0 1DFF6990#E100001480000000
(1637195839.321895) can0 1CEF9050#B098058000000200
(1637195839.335449) can0 1DFF6990#000DB09802800000
(1637195839.336491) can0 1DFF6990#01000014E0000000
(1637195839.860204) can0 0DED9050#E00A010DF201F802
(1637195839.861987) can0 0DED9050#E101200200FFFFFF
(1637195839.868579) can0 0DED5090#2007020DF2010002
(1637195839.869546) can0 0DED5090#2100FFFFFFFFFFFF
(1637195839.871595) can0 0DF20C90#FF00000000000000
(1637195839.892341) can0 0DF20D90#2014140000C0FFFF
(1637195840.131402) can0 1CEF9050#B098054000000200
(1637195840.136759) can0 1DFF6990#200DB09802400000
(1637195840.137960) can0 1DFF6990#210C0014C0000000
(1637195840.389911) can0 1CFF1490#B098010000451000
(1637195840.744449) can0 1CEF9050#B098052000000200
(1637195840.756927) can0 1DFF6990#400DB09802200000
(1637195840.757705) can0 1DFF6990#410B0014C0000000
(1637195841.553465) can0 1CEF9050#B098051000000200
(1637195841.554939) can0 1DFF6990#600DB09802100000
(1637195841.555799) can0 1DFF6990#6100001480000000
(1637195842.364124) can0 1CEF9050#B098050800000200
(1637195842.373597) can0 1DFF6990#800DB09802080000
(1637195842.374714) can0 1DFF6990#8100001480000000
(1637195842.973142) can0 1CEF9050#B098050400000200
(1637195842.992799) can0 1DFF6990#A00DB09802040000
(1637195842.993816) can0 1DFF6990#A10B0014C0000000
(1637195843.788598) can0 1CEF9050#B098050200000200
(1637195843.792062) can0 1DFF6990#C00DB09802020000
(1637195843.792935) can0 1DFF6990#C10C0014C0000000
(1637195844.390670) can0 1CEF9050#B098050100000200
(1637195844.407147) can0 1DFF6990#E00DB09802010000
(1637195844.409104) can0 1DFF6990#E100001480000000
(1637195844.496940) can0 1CFF1490#B098010000451000
(1637195844.832331) can0 18EEFF50#22E13111008232C0
(1637195844.832480) can0 18EAFF50#00EE00
(1637195844.842792) can0 18EEFF90#C9831916208C3CC0
(1637195845.010514) can0 1CEF9050#B098050080000200
(1637195845.027059) can0 1DFF6990#000DB09802008000
(1637195845.029032) can0 1DFF6990#0100001480000000
(1637195845.618349) can0 1CEF9050#B098050040000200
(1637195845.623155) can0 1DFF6990#200DB09802004000
(1637195845.625060) can0 1DFF6990#2100001480000000
(1637195846.220758) can0 1CEF9050#B098050020000200
(1637195846.239289) can0 1DFF6990#400DB09802002000
(1637195846.241163) can0 1DFF6990#4100001480000000
(1637195846.552955) can0 0DF20D90#2014140000C0FFFF
(1637195846.836575) can0 1CEF9050#B098050010000200
(1637195846.838316) can0 1DFF6990#600DB09802001000
(1637195846.840273) can0 1DFF6990#6100001480000000
(1637195847.443496) can0 1CEF9050#B098058000000200
(1637195847.454189) can0 1DFF6990#800DB09802800000
(1637195847.456181) can0 1DFF6990#8100001480000000
(1637195848.047681) can0 1CEF9050#B098054000000200
(1637195848.050266) can0 1DFF6990#A00DB09802400000
(1637195848.051988) can0 1DFF6990#A10C0014C0000000
(1637195848.608897) can0 1CFF1490#B098010000451000
(1637195848.654356) can0 1CEF9050#B098052000000200
(1637195848.670061) can0 1DFF6990#C00DB09802200000
(1637195848.671727) can0 1DFF6990#C10B0014C0000000
(1637195849.266781) can0 1CEF9050#B098051000000200
(1637195849.286327) can0 1DFF6990#E00DB09802100000
(1637195849.288034) can0 1DFF6990#E100001480000000
(1637195849.875696) can0 1CEF9050#B098050800000200
(1637195849.881429) can0 1DFF6990#000DB09802080000
(1637195849.883264) can0 1DFF6990#0100001480000000
(1637195850.692319) can0 1CEF9050#B098050400000200
(1637195850.705058) can0 1DFF6990#200DB09802040000
(1637195850.707106) can0 1DFF6990#210B0014C0000000
(1637195851.499415) can0 1CEF9050#B098050200000200
(1637195851.505312) can0 1DFF6990#400DB09802020000
(1637195851.507215) can0 1DFF6990#410C0014C0000000
(1637195851.672423) can0 0DF20C90#FF00000000000000
(1637195851.672969) can0 19F30790#FF000000000000FF
(1637195851.673600) can0 0DF20C90#FF01020000640000
(1637195851.674106) can0 19F30790#FF017800000000FF
(1637195851.674709) can0 0DF20C90#FF02020000640000
(1637195851.675294) can0 19F30790#FF027700000000FF
(1637195851.675864) can0 0DF20C90#FF03000000000000
(1637195851.676413) can0 19F30790#FF030000000000FF
(1637195851.677026) can0 0DF20C90#FF04000000000000
(1637195851.677615) can0 19F30790#FF040000000000FF
(1637195851.678163) can0 0DF20C90#FF05020000640000
(1637195851.678760) can0 19F30790#FF057700000000FF
(1637195851.679344) can0 0DF20C90#FF06020000640000
(1637195851.679904) can0 19F30790#FF067800000000FF
(1637195851.680420) can0 0DF20C90#FF07000000000000
(1637195851.681008) can0 19F30790#FF070000000000FF
(1637195851.681573) can0 0DF20C90#FF08000000000000
(1637195851.682195) can0 19F30790#FF080000000000FF
(1637195851.682778) can0 0DF20C90#FF09000000000000
(1637195851.683387) can0 19F30790#FF090000000000FF
(1637195851.683841) can0 0DF20C90#FF0A000000000000
(1637195851.684512) can0 19F30790#FF0A0000000000FF
(1637195851.685076) can0 0DF20C90#FF0B000000000000
(1637195851.685663) can0 19F30790#FF0B0000000000FF
(1637195852.717526) can0 1CFF1490#B098010000451000
(1637195854.886638) can0 18EEFF50#22E13111008232C0
(1637195854.886669) can0 18EAFF50#00EE00
(1637195854.903822) can0 18EEFF90#C9831916208C3CC0
(1637195856.063510) can0 0DED9050#C00A010DF201F802
(1637195856.063847) can0 0DED9050#C101200800FFFFFF
(1637195856.066352) can0 0DED5090#4007020DF2010002
(1637195856.068246) can0 0DED5090#4100FFFFFFFFFFFF
(1637195856.070322) can0 0DF20C90#FF06000000000000
(1637195856.091609) can0 0DF20D90#2014040000C0FFFF
(1637195856.891989) can0 0DF20D90#2014040000C0FFFF
(1637195856.892018) can0 1CFF1490#B098010000451000
(1637195857.225927) can0 0DED9050#E00A010DF201F802
(1637195857.226272) can0 0DED9050#E101200700FFFFFF
(1637195857.227776) can0 0DF20C90#FF05000000000000
(1637195857.237455) can0 0DF20D90#2014000000C0FFFF
(1637195857.237995) can0 0DED5090#6007020DF2010002
(1637195857.239082) can0 0DED5090#6100FFFFFFFFFFFF
(1637195858.365835) can0 0DED9050#000A010DF201F802
(1637195858.366234) can0 0DED9050#0101200500FFFFFF
(1637195858.384677) can0 0DED5090#8007020DF2010002
(1637195858.386320) can0 0DED5090#8100FFFFFFFFFFFF
(1637195859.438475) can0 0DED9050#200A010DF201F802
(1637195859.439162) can0 0DED9050#2101200400FFFFFF
(1637195859.443005) can0 0DF20C90#FF02000000000000
(1637195859.452697) can0 0DF20D90#2004000000C0FFFF
(1637195859.453094) can0 0DED5090#A007020DF2010002
(1637195859.454131) can0 0DED5090#A100FFFFFFFFFFFF
(1637195860.719786) can0 0DED9050#400A010DF201F802
(1637195860.720309) can0 0DED9050#4101200300FFFFFF
(1637195860.730718) can0 0DF20C90#FF01000000000000
(1637195860.740723) can0 0DF20D90#2000000000C0FFFF
(1637195860.741260) can0 0DED5090#C007020DF2010002
(1637195860.742425) can0 0DED5090#C100FFFFFFFFFFFF
(1637195861.157975) can0 1CFF1490#B098010000451000
(1637195864.939131) can0 18EEFF50#22E13111008232C0
(1637195864.939293) can0 18EAFF50#00EE00
(1637195864.955964) can0 18EEFF90#C9831916208C3CC0
(1637195865.246420) can0 1CFF1490#B098010000451000
(1637195867.265498) can0 0DF20C90#FF00000000000000
(1637195867.265894) can0 19F30790#FF000000000000FF
(1637195867.266649) can0 0DF20C90#FF01000000000000
(1637195867.267169) can0 19F30790#FF010000000000FF
(1637195867.267655) can0 0DF20C90#FF02000000000000
(1637195867.268400) can0 19F30790#FF020000000000FF
(1637195867.268923) can0 0DF20C90#FF03000000000000
(1637195867.269507) can0 19F30790#FF030000000000FF
(1637195867.270056) can0 0DF20C90#FF04000000000000
(1637195867.270613) can0 19F30790#FF040000000000FF
(1637195867.271298) can0 0DF20C90#FF05000000000000
(1637195867.271840) can0 19F30790#FF050000000000FF
(1637195867.272381) can0 0DF20C90#FF06000000000000
(1637195867.272956) can0 19F30790#FF060000000000FF
(1637195867.273551) can0 0DF20C90#FF07000000000000
(1637195867.274081) can0 19F30790#FF070000000000FF
(1637195867.274643) can0 0DF20C90#FF08000000000000
(1637195867.275247) can0 19F30790#FF080000000000FF
(1637195867.275829) can0 0DF20C90#FF09000000000000
(1637195867.276398) can0 19F30790#FF090000000000FF
(1637195867.276983) can0 0DF20C90#FF0A000000000000
(1637195867.277564) can0 19F30790#FF0A0000000000FF
(1637195867.278139) can0 0DF20C90#FF0B000000000000
(1637195867.278720) can0 19F30790#FF0B0000000000FF
(1637195867.291120) can0 0DF20D90#2000000000C0FFFF
(1637195867.291686) can0 1DF01190#307524FFFFFFFFFF
(1637195868.168648) can0 1DF01150#60EA03CFFFFFFFFF
(1637195869.335278) can0 1CFF1490#B098010000451000
(1637195873.423798) can0 1CFF1490#B098010000451000
(1637195874.993394) can0 18EEFF50#22E13111008232C0
(1637195874.993424) can0 18EAFF50#00EE00
(1637195875.014929) can0 18EEFF90#C9831916208C3CC0
(1637195877.512144) can0 0DF20D90#2000000000C0FFFF
(1637195877.512409) can0 1CFF1490#B098010000451000
(1637195881.599956) can0 1CFF1490#B098010000451000
(1637195882.599447) can0 0DF20C90#FF00000000000000
(1637195882.599937) can0 19F30790#FF000000000000FF
(1637195882.600503) can0 0DF20C90#FF01000000000000
(1637195882.601555) can0 19F30790#FF010000000000FF
(1637195882.601565) can0 0DF20C90#FF02000000000000
(1637195882.602355) can0 19F30790#FF020000000000FF
(1637195882.602790) can0 0DF20C90#FF03000000000000
(1637195882.603353) can0 19F30790#FF030000000000FF
(1637195882.603983) can0 0DF20C90#FF04000000000000
(1637195882.604529) can0 19F30790#FF040000000000FF
(1637195882.605055) can0 0DF20C90#FF05000000000000
(1637195882.605741) can0 19F30790#FF050000000000FF
(1637195882.606280) can0 0DF20C90#FF06000000000000
(1637195882.607114) can0 19F30790#FF060000000000FF
(1637195882.607558) can0 0DF20C90#FF07000000000000
(1637195882.608250) can0 19F30790#FF070000000000FF
(1637195882.608624) can0 0DF20C90#FF08000000000000
(1637195882.609185) can0 19F30790#FF080000000000FF
(1637195882.609758) can0 0DF20C90#FF09000000000000
(1637195882.610350) can0 19F30790#FF090000000000FF
(1637195882.610939) can0 0DF20C90#FF0A000000000000
(1637195882.611609) can0 19F30790#FF0A0000000000FF
(1637195882.612054) can0 0DF20C90#FF0B000000000000
(1637195882.612682) can0 19F30790#FF0B0000000000FF
