(1634927597.958512) can0 18EEFF90#C9831916208C3CC0
(1634927599.225132) can0 0DF20C90#FF00000000000000
(1634927599.225693) can0 0DF20C90#FF01000000000000
(1634927599.226243) can0 0DF20C90#FF02000000000000
(1634927599.226849) can0 0DF20C90#FF03000000000000
(1634927599.227569) can0 0DF20C90#FF04000000000000
(1634927599.228096) can0 0DF20C90#FF05000000000000
(1634927599.228669) can0 0DF20C90#FF06000000000000
(1634927599.229250) can0 0DF20C90#FF07000000000000
(1634927599.229802) can0 0DF20C90#FF08000000000000
(1634927599.230376) can0 0DF20C90#FF09000000000000
(1634927599.230938) can0 0DF20C90#FF0A000000000000
(1634927599.231558) can0 0DF20C90#FF0B000000000000
(1634927603.405831) can0 1CFF1490#B098010000461000
(1634927607.494160) can0 1CFF1490#B098010000461000
(1634927609.538182) can0 0DF20D90#2000000000C0FFFF
(1634927611.582387) can0 1CFF1490#B098010000461000
(1634927614.625645) can0 0DF20C90#FF00000000000000
(1634927614.626218) can0 19F30790#FF000000000000FF
(1634927614.626693) can0 0DF20C90#FF01000000000000
(1634927614.627440) can0 19F30790#FF010000000000FF
(1634927614.627886) can0 0DF20C90#FF02000000000000
(1634927614.628615) can0 19F30790#FF020000000000FF
(1634927614.629201) can0 0DF20C90#FF03000000000000
(1634927614.629852) can0 19F30790#FF030000000000FF
(1634927614.630291) can0 0DF20C90#FF04000000000000
(1634927614.630836) can0 19F30790#FF040000000000FF
(1634927614.631460) can0 0DF20C90#FF05000000000000
(1634927614.632068) can0 19F30790#FF050000000000FF
(1634927614.632569) can0 0DF20C90#FF06000000000000
(1634927614.633150) can0 19F30790#FF060000000000FF
(1634927614.633827) can0 0DF20C90#FF07000000000000
(1634927614.634462) can0 19F30790#FF070000000000FF
(1634927614.634973) can0 0DF20C90#FF08000000000000
(1634927614.635631) can0 19F30790#FF080000000000FF
(1634927614.636173) can0 0DF20C90#FF09000000000000
(1634927614.636725) can0 19F30790#FF090000000000FF
(1634927614.637390) can0 0DF20C90#FF0A000000000000
(1634927614.637873) can0 19F30790#FF0A0000000000FF
(1634927614.638470) can0 0DF20C90#FF0B000000000000
(1634927614.639200) can0 19F30790#FF0B0000000000FF
(1634927615.670520) can0 1CFF1490#B098010000461000
(1634927619.759291) can0 0DF20D90#2000000000C0FFFF
(1634927619.759522) can0 1CFF1490#B098010000461000
(1634927623.847118) can0 1CFF1490#B098010000461000
(1634927627.935266) can0 1CFF1490#B098010000461000
(1634927629.954700) can0 0DF20C90#FF00000000000000
(1634927629.955244) can0 19F30790#FF000000000000FF
(1634927629.955735) can0 0DF20C90#FF01000000000000
(1634927629.956378) can0 19F30790#FF010000000000FF
(1634927629.956945) can0 0DF20C90#FF02000000000000
(1634927629.957614) can0 19F30790#FF020000000000FF
(1634927629.958256) can0 0DF20C90#FF03000000000000
(1634927629.958594) can0 19F30790#FF030000000000FF
(1634927629.959367) can0 0DF20C90#FF04000000000000
(1634927629.959922) can0 19F30790#FF040000000000FF
(1634927629.960527) can0 0DF20C90#FF05000000000000
(1634927629.961106) can0 19F30790#FF050000000000FF
(1634927629.961540) can0 0DF20C90#FF06000000000000
(1634927629.962347) can0 19F30790#FF060000000000FF
(1634927629.962774) can0 0DF20C90#FF07000000000000
(1634927629.963397) can0 19F30790#FF070000000000FF
(1634927629.963986) can0 0DF20C90#FF08000000000000
(1634927629.964645) can0 19F30790#FF080000000000FF
(1634927629.965258) can0 0DF20C90#FF09000000000000
(1634927629.965656) can0 19F30790#FF090000000000FF
(1634927629.966279) can0 0DF20C90#FF0A000000000000
(1634927629.966861) can0 19F30790#FF0A0000000000FF
(1634927629.967335) can0 0DF20C90#FF0B000000000000
(1634927629.968118) can0 19F30790#FF0B0000000000FF
(1634927629.980234) can0 0DF20D90#2000000000C0FFFF
(1634927629.980814) can0 1DF01190#307500FFFFFFFFFF
(1634927632.024557) can0 1CFF1490#B098010000461000
(1634927636.112745) can0 1CFF1490#B098010000461000
(1634927640.201108) can0 0DF20D90#2000000000C0FFFF
(1634927640.201460) can0 1CFF1490#B098010000461000
(1634927644.289388) can0 1CFF1490#B098010000461000
(1634927645.288931) can0 0DF20C90#FF00000000000000
(1634927645.289121) can0 19F30790#FF000000000000FF
(1634927645.289744) can0 0DF20C90#FF01000000000000
(1634927645.290296) can0 19F30790#FF010000000000FF
(1634927645.290992) can0 0DF20C90#FF02000000000000
(1634927645.291579) can0 19F30790#FF020000000000FF
(1634927645.292014) can0 0DF20C90#FF03000000000000
(1634927645.292639) can0 19F30790#FF030000000000FF
(1634927645.293305) can0 0DF20C90#FF04000000000000
(1634927645.293814) can0 19F30790#FF040000000000FF
(1634927645.294441) can0 0DF20C90#FF05000000000000
(1634927645.294965) can0 19F30790#FF050000000000FF
(1634927645.295557) can0 0DF20C90#FF06000000000000
(1634927645.296151) can0 19F30790#FF060000000000FF
(1634927645.296743) can0 0DF20C90#FF07000000000000
(1634927645.297301) can0 19F30790#FF070000000000FF
(1634927645.297913) can0 0DF20C90#FF08000000000000
(1634927645.298447) can0 19F30790#FF080000000000FF
(1634927645.299040) can0 0DF20C90#FF09000000000000
(1634927645.299647) can0 19F30790#FF090000000000FF
(1634927645.300210) can0 0DF20C90#FF0A000000000000
(1634927645.300802) can0 19F30790#FF0A0000000000FF
(1634927645.301405) can0 0DF20C90#FF0B000000000000
(1634927645.301965) can0 19F30790#FF0B0000000000FF
(1634927648.377720) can0 1CFF1490#B098010000461000
(1634927650.421770) can0 0DF20D90#2000000000C0FFFF
(1634927652.465884) can0 1CFF1490#B098010000461000
(1634927656.554457) can0 1CFF1490#B098010000461000
(1634927660.617728) can0 0DF20C90#FF00000000000000
(1634927660.618124) can0 19F30790#FF000000000000FF
(1634927660.619228) can0 0DF20C90#FF01000000000000
(1634927660.619256) can0 19F30790#FF010000000000FF
(1634927660.619950) can0 0DF20C90#FF02000000000000
(1634927660.620404) can0 19F30790#FF020000000000FF
(1634927660.621064) can0 0DF20C90#FF03000000000000
(1634927660.621632) can0 19F30790#FF030000000000FF
(1634927660.622267) can0 0DF20C90#FF04000000000000
(1634927660.622781) can0 19F30790#FF040000000000FF
(1634927660.623379) can0 0DF20C90#FF05000000000000
(1634927660.623984) can0 19F30790#FF050000000000FF
(1634927660.624563) can0 0DF20C90#FF06000000000000
(1634927660.625161) can0 19F30790#FF060000000000FF
(1634927660.625738) can0 0DF20C90#FF07000000000000
(1634927660.626313) can0 19F30790#FF070000000000FF
(1634927660.626926) can0 0DF20C90#FF08000000000000
(1634927660.627406) can0 19F30790#FF080000000000FF
(1634927660.627947) can0 0DF20C90#FF09000000000000
(1634927660.628641) can0 19F30790#FF090000000000FF
(1634927660.629176) can0 0DF20C90#FF0A000000000000
(1634927660.629861) can0 19F30790#FF0A0000000000FF
(1634927660.630292) can0 0DF20C90#FF0B000000000000
(1634927660.630968) can0 19F30790#FF0B0000000000FF
(1634927660.643190) can0 0DF20D90#2000000000C0FFFF
(1634927660.643759) can0 1DF01190#307501FFFFFFFFFF
(1634927660.644353) can0 1CFF1490#B098010000461000
(1634927664.731596) can0 1CFF1490#B098010000461000
(1634927668.819955) can0 1CFF1490#B098010000461000
(1634927670.863780) can0 0DF20D90#2000000000C0FFFF
(1634927672.908137) can0 1CFF1490#B098010000461000
(1634927675.951662) can0 0DF20C90#FF00000000000000
(1634927675.952014) can0 19F30790#FF000000000000FF
(1634927675.952626) can0 0DF20C90#FF01000000000000
(1634927675.953280) can0 19F30790#FF010000000000FF
(1634927675.953844) can0 0DF20C90#FF02000000000000
(1634927675.954495) can0 19F30790#FF020000000000FF
(1634927675.954953) can0 0DF20C90#FF03000000000000
(1634927675.955678) can0 19F30790#FF030000000000FF
(1634927675.956106) can0 0DF20C90#FF04000000000000
(1634927675.956744) can0 19F30790#FF040000000000FF
(1634927675.957447) can0 0DF20C90#FF05000000000000
(1634927675.958039) can0 19F30790#FF050000000000FF
(1634927675.958437) can0 0DF20C90#FF06000000000000
(1634927675.959132) can0 19F30790#FF060000000000FF
(1634927675.959773) can0 0DF20C90#FF07000000000000
(1634927675.960275) can0 19F30790#FF070000000000FF
(1634927675.960887) can0 0DF20C90#FF08000000000000
(1634927675.961444) can0 19F30790#FF080000000000FF
(1634927675.962102) can0 0DF20C90#FF09000000000000
(1634927675.962621) can0 19F30790#FF090000000000FF
(1634927675.963333) can0 0DF20C90#FF0A000000000000
(1634927675.963593) can0 19F30790#FF0A0000000000FF
(1634927675.964186) can0 0DF20C90#FF0B000000000000
(1634927675.964790) can0 19F30790#FF0B0000000000FF
(1634927676.996282) can0 1CFF1490#B098010000461000
(1634927681.084645) can0 0DF20D90#2000000000C0FFFF
(1634927681.085040) can0 1CFF1490#B098010000461000
(1634927685.173078) can0 1CFF1490#B098010000461000

